Connection to 192.168.0.102 closed.
ghost@ghost-TravelMate-5760G:
~
$ ssh vlad@192.168.0.102
vlad@192.168.0.102's password: 
  ___  ____  _    ___             
 / _ \|  _ \(_)  / _ \ _ __   ___ 
| | | | |_) | | | | | | '_ \ / _ \
| |_| |  __/| | | |_| | | | |  __/
 \___/|_|   |_|  \___/|_| |_|\___|
                                  
Welcome to Armbian Buster with Linux 5.3.9-sunxi

System load:   0.00 0.00 0.00  	Up time:       28 min		Local users:   3            	
Memory usage:  18 % of 491MB  	IP:            192.168.0.102
CPU temp:      47°C           	
Usage of /:    7% of 15G    	

Last login: Mon Dec  2 10:14:00 2019 from 192.168.0.104

vlad@orangepione:~$ 


root@orangepione:/home/vlad# i2cdetect -l
i2c-1	i2c       	mv64xxx_i2c adapter             	I2C adapter
i2c-2	i2c       	DesignWare HDMI                 	I2C adapter
i2c-0	i2c       	mv64xxx_i2c adapter             	I2C adapter
root@orangepione:/home/vlad# i2cdetect -y 0
     0  1  2  3  4  5  6  7  8  9  a  b  c  d  e  f
00:          -- -- -- -- -- -- -- -- -- -- -- -- -- 
10: -- -- -- -- -- -- -- -- -- -- -- -- -- -- -- -- 
20: -- -- -- -- -- -- -- -- -- -- -- -- -- -- -- -- 
30: -- -- -- -- -- -- -- -- -- -- -- -- -- -- -- -- 
40: -- -- -- -- -- -- -- -- -- -- -- -- -- -- -- -- 
50: -- -- -- -- -- -- -- -- -- -- -- -- -- -- -- -- 
60: -- -- -- -- -- -- -- -- 68 -- -- -- -- -- -- -- 
70: -- -- -- -- -- -- -- --                         
root@orangepione:/home/vlad# 





root@orangepione:/home/vlad# i2cdump -y 0 0x68
No size specified (using byte-data access)
     0  1  2  3  4  5  6  7  8  9  a  b  c  d  e  f    0123456789abcdef
00: 85 01 00 3d be 12 f6 40 09 39 03 9c 28 50 4f b8    ??.=???@?9??(PO?
10: 40 00 00 00 00 00 00 00 00 00 00 00 00 00 00 00    @...............
20: 00 00 00 00 00 00 00 00 00 00 00 00 00 00 00 00    ................
30: 00 00 00 00 00 00 00 00 00 00 00 00 00 00 00 00    ................
40: 00 00 00 00 00 00 00 00 00 00 00 00 00 00 00 00    ................
50: 00 00 00 00 00 00 00 00 00 00 00 00 00 00 00 00    ................
60: 00 00 00 00 00 00 00 00 00 00 00 40 00 00 00 00    ...........@....
70: 00 00 00 00 00 68 00 00 00 00 00 00 00 00 00 00    .....h..........
80: 85 01 00 3d be 12 f6 40 09 39 03 9c 28 50 4f b8    ??.=???@?9??(PO?
90: 40 00 00 00 00 00 00 00 00 00 00 00 00 00 00 00    @...............
a0: 00 00 00 00 00 00 00 00 00 00 00 00 00 00 00 00    ................
b0: 00 00 00 00 00 00 00 00 00 00 00 00 00 00 00 00    ................
c0: 00 00 00 00 00 00 00 00 00 00 00 00 00 00 00 00    ................
d0: 00 00 00 00 00 00 00 00 00 00 00 00 00 00 00 00    ................
e0: 00 00 00 00 00 00 00 00 00 00 00 40 00 00 00 00    ...........@....
f0: 00 00 00 00 00 68 00 00 00 00 00 00 00 00 00 00    .....h..........
root@orangepione:/home/vlad# i2cdump -y -f 0 0x68 b
     0  1  2  3  4  5  6  7  8  9  a  b  c  d  e  f    0123456789abcdef
00: 85 01 00 3d be 12 f6 40 09 39 03 9c 28 50 4f b8    ??.=???@?9??(PO?
10: 40 00 00 00 00 00 00 00 00 00 00 00 00 00 00 00    @...............
20: 00 00 00 00 00 00 00 00 00 00 00 00 00 00 00 00    ................
30: 00 00 00 00 00 00 00 00 00 00 00 00 00 00 00 00    ................
40: 00 00 00 00 00 00 00 00 00 00 00 00 00 00 00 00    ................
50: 00 00 00 00 00 00 00 00 00 00 00 00 00 00 00 00    ................
60: 00 00 00 00 00 00 00 00 00 00 00 40 00 00 00 00    ...........@....
70: 00 00 00 00 00 68 00 00 00 00 00 00 00 00 00 00    .....h..........
80: 85 01 00 3d be 12 f6 40 09 39 03 9c 28 50 4f b8    ??.=???@?9??(PO?
90: 40 00 00 00 00 00 00 00 00 00 00 00 00 00 00 00    @...............
a0: 00 00 00 00 00 00 00 00 00 00 00 00 00 00 00 00    ................
b0: 00 00 00 00 00 00 00 00 00 00 00 00 00 00 00 00    ................
c0: 00 00 00 00 00 00 00 00 00 00 00 00 00 00 00 00    ................
d0: 00 00 00 00 00 00 00 00 00 00 00 00 00 00 00 00    ................
e0: 00 00 00 00 00 00 00 00 00 00 00 40 00 00 00 00    ...........@....
f0: 00 00 00 00 00 68 00 00 00 00 00 00 00 00 00 00    .....h..........
root@orangepione:/home/vlad# 


root@orangepione:/home/vlad# i2cget -y 0 0x68 0x75
0x68
root@orangepione:/home/vlad# i2cget -y 0 0x68 0x41 b
0xf3
root@orangepione:/home/vlad# i2cget -y 0 0x68 0x42 b
0xe0
root@orangepione:/home/vlad# i2cget -y 0 0x68 0x41 b
0xf4
root@orangepione:/home/vlad# i2cget -y 0 0x68 0x42 b
0x40
root@orangepione:/home/vlad# i2cget -y 0 0x68 0x41 b
0xf4
root@orangepione:/home/vlad# i2cget -y 0 0x68 0x42 b
0x40
root@orangepione:/home/vlad# i2cget -y 0 0x68 0x41 b
0xf4
root@orangepione:/home/vlad# i2cget -y 0 0x68 0x42 b
0x50
root@orangepione:/home/vlad# 



