bekir@bekir-GL553VE:~$ ssh root@192.168.0.101
root@192.168.0.101's password: 
  ___  ____  _    ___             
 / _ \|  _ \(_)  / _ \ _ __   ___ 
| | | | |_) | | | | | | '_ \ / _ \
| |_| |  __/| | | |_| | | | |  __/
 \___/|_|   |_|  \___/|_| |_|\___|
                                  
Welcome to Armbian Bionic with Linux 5.3.7

System load:   0.00 0.00 0.00  	Up time:       1:26 hour		
Memory usage:  9 % of 498MB  	IP:            192.168.0.101
Usage of /:    12% of 7.3G   	

[ General system configuration (beta): armbian-config ]

Last login: Sun Dec  1 10:16:47 2019 from 192.168.0.105

root@orangepione:~# i2cdetect 0
WARNING! This program can confuse your I2C bus, cause data loss and worse!
I will probe file /dev/i2c-0.
I will probe address range 0x03-0x77.
Continue? [Y/n] y
     0  1  2  3  4  5  6  7  8  9  a  b  c  d  e  f
00:          -- -- -- -- -- -- -- -- -- -- -- -- -- 
10: -- -- -- -- -- -- -- -- -- -- -- -- -- -- -- -- 
20: -- -- -- -- -- -- -- -- -- -- -- -- -- -- -- -- 
30: -- -- -- -- -- -- -- -- -- -- -- -- -- -- -- -- 
40: -- -- -- -- -- -- -- -- -- -- -- -- -- -- -- -- 
50: -- -- -- -- -- -- -- -- -- -- -- -- -- -- -- -- 
60: -- -- -- -- -- -- -- -- 68 -- -- -- -- -- -- -- 
70: -- -- -- -- -- -- -- --                         
root@orangepione:~# i2cdump -f -y 0 0x68 b
     0  1  2  3  4  5  6  7  8  9  a  b  c  d  e  f    0123456789abcdef
00: 81 7f 7e 40 b3 2e f7 2a ff 53 05 82 28 6e 6f 92    ??~@?.?*.S??(no?
10: 12 00 00 00 00 00 00 00 00 00 00 00 00 00 00 00    ?...............
20: 00 00 00 00 00 00 00 00 00 00 00 00 00 00 00 00    ................
30: 00 00 00 00 00 00 00 00 00 00 01 14 34 eb f8 3c    ..........??4??<
40: d0 f0 10 ff 5b ff 2f fe d3 00 00 00 00 00 00 00    ???.[./??.......
50: 00 00 00 00 00 00 00 00 00 00 00 00 00 00 00 00    ................
60: 00 00 00 00 00 00 00 00 00 00 00 00 00 00 00 d7    ...............?
70: 00 00 00 00 00 68 00 00 00 00 00 00 00 00 00 00    .....h..........
80: 81 7f 7e 40 b3 2e f7 2a ff 53 05 82 28 6e 6f 92    ??~@?.?*.S??(no?
90: 12 00 00 00 00 00 00 00 00 00 00 00 00 00 00 00    ?...............
a0: 00 00 00 00 00 00 00 00 00 00 00 00 00 00 00 00    ................
b0: 00 00 00 00 00 00 00 00 00 00 01 14 e4 eb 24 3c    ..........????$<
c0: 78 ef 00 ff 77 ff 2c fe e1 00 00 00 00 00 00 00    x?..w.,??.......
d0: 00 00 00 00 00 00 00 00 00 00 00 00 00 00 00 00    ................
e0: 00 00 00 00 00 00 00 00 00 00 00 00 00 00 03 2f    ..............?/
f0: 00 00 00 00 00 68 00 00 00 00 00 00 00 00 00 00    .....h..........
root@orangepione:~# i2cset -y 0 0x68 0x6b 0x00
root@orangepione:~# i2cget -y 0 0x68 0x41 b
0xf0
root@orangepione:~# i2cget -y 0 0x68 0x42 b
0xd0
root@orangepione:~# i2cget -y 0 0x68 0x41 b
0xf0
root@orangepione:~# i2cget -y 0 0x68 0x42 b
0xf0
root@orangepione:~# i2cget -y 0 0x68 0x41 b
0xf0
root@orangepione:~# i2cget -y 0 0x68 0x42 b
0x30
root@orangepione:~# i2cget -y 0 0x68 0x75 b
0x68
root@orangepione:~#

